time	V(input)	V(out)
0.000000000000000e+000	2.000000e+000	4.000000e-008
9.999999717180685e-010	1.999996e+000	3.296148e-008
1.220190516217739e-009	1.999996e+000	3.166275e-008
2.541333783215764e-009	1.999991e+000	2.811300e-008
6.290826551119909e-009	1.999978e+000	2.682919e-008
2.138426337944562e-008	1.999924e+000	2.781963e-008
2.895976266027843e-008	1.999897e+000	2.755247e-008
3.099526916091223e-008	1.999889e+000	2.422130e-008
3.244176733700712e-008	1.999884e+000	1.599676e-008
3.346723134754302e-008	1.999880e+000	6.197986e-009
3.451566883617630e-008	1.999877e+000	-5.289045e-009
3.661254381344287e-008	1.999869e+000	-2.866191e-008
4.080629376797601e-008	1.999854e+000	-7.670966e-008
4.885691947184264e-008	1.999825e+000	-1.724289e-007
5.803226687474465e-008	1.999793e+000	-2.867489e-007
6.873259188401694e-008	1.999755e+000	-4.283460e-007
8.368973696178831e-008	1.999701e+000	-6.401685e-007
1.000100010001000e-007	1.999643e+000	-8.837262e-007
1.019315499492226e-007	1.999622e+000	-9.280548e-007
1.057746478474677e-007	1.999581e+000	-1.002038e-006
1.173194011338914e-007	1.999457e+000	-1.191388e-006
1.232579503743191e-007	1.999394e+000	-1.269017e-006
1.269597930720917e-007	1.999354e+000	-1.316542e-006
1.322950130014367e-007	1.999297e+000	-1.384819e-006
1.424616582220784e-007	1.999188e+000	-1.514919e-006
1.530374766239521e-007	1.999075e+000	-1.651095e-006
1.669173737851855e-007	1.998926e+000	-1.835058e-006
1.877587101514534e-007	1.998703e+000	-2.118544e-006
2.000200020002001e-007	1.998572e+000	-2.284270e-006
2.026363331672210e-007	1.998525e+000	-2.340686e-006
2.078689955012628e-007	1.998431e+000	-2.430641e-006
2.104962754244589e-007	1.998385e+000	-2.399028e-006
2.120722945700598e-007	1.998356e+000	-1.334270e-006
2.130673624118213e-007	1.998339e+000	2.619664e-006
2.139780709516302e-007	1.998322e+000	1.329278e-005
2.152636085364223e-007	1.998299e+000	4.292340e-005
2.167155842461866e-007	1.998274e+000	1.016544e-004
2.192465903025563e-007	1.998228e+000	2.720806e-004
2.225732875211830e-007	1.998169e+000	6.374703e-004
2.269615208202254e-007	1.998091e+000	1.397223e-003
2.312681019272277e-007	1.998014e+000	2.548301e-003
2.359361709855398e-007	1.997931e+000	4.507439e-003
2.415182887260060e-007	1.997831e+000	8.228581e-003
2.464896971409898e-007	1.997742e+000	1.366220e-002
2.503922434997698e-007	1.997672e+000	2.068413e-002
2.528760831266166e-007	1.997628e+000	2.770288e-002
2.541842625521898e-007	1.997605e+000	3.326448e-002
2.552464318958649e-007	1.997586e+000	3.988497e-002
2.562883563118033e-007	1.997567e+000	5.010810e-002
2.572288939753779e-007	1.997550e+000	6.644200e-002
2.579270340505763e-007	1.997538e+000	8.689994e-002
2.582357737767219e-007	1.997532e+000	1.004581e-001
2.584285287168716e-007	1.997529e+000	1.116048e-001
2.586421921380074e-007	1.997525e+000	1.261236e-001
2.587816323826416e-007	1.997523e+000	1.369238e-001
2.589481983782377e-007	1.997520e+000	1.525198e-001
2.592183060243731e-007	1.997515e+000	1.847626e-001
2.594868574565681e-007	1.997510e+000	2.269754e-001
2.598869639304098e-007	1.997503e+000	3.067880e-001
2.605151514277179e-007	1.997492e+000	4.513564e-001
2.611382644663819e-007	1.997481e+000	6.032702e-001
2.620791673886128e-007	1.997464e+000	8.285100e-001
2.631114194232969e-007	1.997445e+000	1.050894e+000
2.646492468817913e-007	1.997418e+000	1.322900e+000
2.664857731296300e-007	1.997385e+000	1.562272e+000
2.687331538327549e-007	1.997345e+000	1.751903e+000
2.711492268704518e-007	1.997302e+000	1.864703e+000
2.745646981728916e-007	1.997241e+000	1.936717e+000
2.783510649924394e-007	1.997173e+000	1.965862e+000
2.827950302695899e-007	1.997094e+000	1.973863e+000
2.893945584611229e-007	1.996976e+000	1.974963e+000
2.973355846234556e-007	1.996835e+000	1.974378e+000
3.000300030003000e-007	1.996786e+000	1.974242e+000
3.009995940256537e-007	1.996762e+000	1.974222e+000
3.029387760763611e-007	1.996714e+000	1.974177e+000
3.068171401777758e-007	1.996617e+000	1.974084e+000
3.145738683806053e-007	1.996423e+000	1.973920e+000
3.300873247862642e-007	1.996036e+000	1.973634e+000
3.444627057308606e-007	1.995677e+000	1.973382e+000
3.559427294305980e-007	1.995390e+000	1.973159e+000
3.692050064458267e-007	1.995059e+000	1.972854e+000
3.786878455605384e-007	1.994822e+000	1.972625e+000
3.849375835326210e-007	1.994666e+000	1.972472e+000
3.898882716316457e-007	1.994542e+000	1.972349e+000
3.909508830089515e-007	1.994515e+000	1.972327e+000
3.921789725293987e-007	1.994485e+000	1.972309e+000
3.937339360356558e-007	1.994446e+000	1.972291e+000
3.965388843537075e-007	1.994376e+000	1.972267e+000
3.994627139382091e-007	1.994303e+000	1.972244e+000
4.000400040004001e-007	1.994288e+000	1.972240e+000
4.006247699173004e-007	1.994269e+000	1.972234e+000
4.017943017511011e-007	1.994232e+000	1.972221e+000
4.041333654187024e-007	1.994157e+000	1.972189e+000
4.088114927539049e-007	1.994007e+000	1.972115e+000
4.181677474243100e-007	1.993706e+000	1.971944e+000
4.368802567651202e-007	1.993106e+000	1.971555e+000
4.505689042623120e-007	1.992666e+000	1.971234e+000
4.609734740221280e-007	1.992332e+000	1.970961e+000
4.692020416301985e-007	1.992068e+000	1.970729e+000
4.746647383333476e-007	1.991893e+000	1.970567e+000
4.761220514672814e-007	1.991846e+000	1.970522e+000
4.770670651234910e-007	1.991816e+000	1.970493e+000
4.779990362134793e-007	1.991786e+000	1.970464e+000
4.909742671741224e-007	1.991369e+000	1.970052e+000
5.000000000000001e-007	1.991080e+000	1.969766e+000
5.000050005000500e-007	1.991079e+000	1.969766e+000
5.000150015001501e-007	1.991079e+000	1.969765e+000
5.000350035003501e-007	1.991078e+000	1.969765e+000
5.000500050005001e-007	1.991078e+000	1.969764e+000
5.000620062006201e-007	1.991077e+000	1.969764e+000
5.000780078007801e-007	1.991077e+000	1.969763e+000
5.001100110011001e-007	1.991076e+000	1.969762e+000
5.001740174017401e-007	1.991073e+000	1.969760e+000
5.003020302030200e-007	1.991068e+000	1.969756e+000
5.005580558055799e-007	1.991058e+000	1.969747e+000
5.010701070106998e-007	1.991038e+000	1.969730e+000
5.020942094209395e-007	1.990998e+000	1.969693e+000
5.040220916590057e-007	1.990922e+000	1.969622e+000
5.067668277797081e-007	1.990815e+000	1.969517e+000
5.122563000211131e-007	1.990599e+000	1.969305e+000
6.000600060006001e-007	1.987157e+000	1.965899e+000
6.088431615868480e-007	1.986750e+000	1.965505e+000
6.264094727593438e-007	1.985936e+000	1.964706e+000
7.000700070007001e-007	1.982525e+000	1.961334e+000
7.070965314696984e-007	1.982150e+000	1.960970e+000
7.211495804076950e-007	1.981400e+000	1.960233e+000
8.000800080008001e-007	1.977187e+000	1.956066e+000
8.057012275759988e-007	1.976847e+000	1.955738e+000
8.169436667263961e-007	1.976167e+000	1.955071e+000
8.394285450271907e-007	1.974808e+000	1.953727e+000
8.843983016287799e-007	1.972090e+000	1.951038e+000
9.000900090009001e-007	1.971142e+000	1.950099e+000
9.090839603212179e-007	1.970535e+000	1.949508e+000
9.270718629618536e-007	1.969321e+000	1.948313e+000
1.000100010001000e-006	1.964393e+000	1.943439e+000
1.007295171057254e-006	1.963857e+000	1.942917e+000
1.021685493169763e-006	1.962785e+000	1.941861e+000
1.100110011001100e-006	1.956943e+000	1.936084e+000
1.105866139846103e-006	1.956474e+000	1.935627e+000
1.117378397536110e-006	1.955536e+000	1.934704e+000
1.186451943676151e-006	1.949908e+000	1.929138e+000
1.200120012001200e-006	1.948794e+000	1.928035e+000
1.209329818153206e-006	1.947980e+000	1.927238e+000
1.227749430457217e-006	1.946351e+000	1.925633e+000
1.300130013001300e-006	1.939950e+000	1.919302e+000
1.307497857922905e-006	1.939247e+000	1.918615e+000
1.322233547766113e-006	1.937842e+000	1.917230e+000
1.400140014001400e-006	1.930413e+000	1.909882e+000
1.406034289938684e-006	1.929811e+000	1.909293e+000
1.417822841813251e-006	1.928605e+000	1.908106e+000
1.488554153060653e-006	1.921373e+000	1.900953e+000
1.500150015001500e-006	1.920188e+000	1.899779e+000
1.509580856501154e-006	1.919159e+000	1.898770e+000
1.528442539500461e-006	1.917101e+000	1.896740e+000
1.600160016001600e-006	1.909277e+000	1.889001e+000
1.607704689201323e-006	1.908402e+000	1.888144e+000
1.622794035600769e-006	1.906653e+000	1.886419e+000
1.700170017001700e-006	1.897685e+000	1.877548e+000
1.706205755561479e-006	1.896944e+000	1.876822e+000
1.718277232681035e-006	1.895463e+000	1.875363e+000
1.800180018001800e-006	1.885416e+000	1.865423e+000
1.809837199697446e-006	1.884166e+000	1.864195e+000
1.829151563088736e-006	1.881667e+000	1.861728e+000
1.900190019001901e-006	1.872474e+000	1.852636e+000
1.907915764358417e-006	1.871423e+000	1.851603e+000
1.923367255071449e-006	1.869320e+000	1.849528e+000
2.000200020002000e-006	1.858864e+000	1.839187e+000
2.006380616287213e-006	1.857982e+000	1.838321e+000
2.018741808857639e-006	1.856218e+000	1.836581e+000
2.100210021002100e-006	1.844592e+000	1.825080e+000
2.110098975058441e-006	1.843116e+000	1.823628e+000
2.129876883171123e-006	1.840163e+000	1.820712e+000
2.200220022002200e-006	1.829662e+000	1.810325e+000
2.208131185247273e-006	1.828429e+000	1.809113e+000
2.223953511737418e-006	1.825964e+000	1.806679e+000
2.300230023002300e-006	1.814080e+000	1.794924e+000
2.306558953598358e-006	1.813053e+000	1.793915e+000
2.319216814790474e-006	1.810999e+000	1.791888e+000
2.400240024002400e-006	1.797851e+000	1.778882e+000
2.410241024102411e-006	1.796164e+000	1.777221e+000
2.430243024302430e-006	1.792790e+000	1.773888e+000
2.500250025002500e-006	1.780981e+000	1.762208e+000
2.508250825082508e-006	1.779581e+000	1.760829e+000
2.524252425242524e-006	1.776780e+000	1.758063e+000
2.600260026002600e-006	1.763477e+000	1.744905e+000
2.606660666066607e-006	1.762316e+000	1.743763e+000
2.619461946194619e-006	1.759995e+000	1.741472e+000
2.700270027002700e-006	1.745344e+000	1.726979e+000
2.708270827082709e-006	1.743844e+000	1.725502e+000
2.724272427242725e-006	1.740843e+000	1.722539e+000
2.800280028002800e-006	1.726591e+000	1.708441e+000
2.806680668066807e-006	1.725351e+000	1.707221e+000
2.819481948194821e-006	1.722872e+000	1.704773e+000
2.900290029002900e-006	1.707222e+000	1.689292e+000
2.908290829082901e-006	1.705624e+000	1.687718e+000
2.924292429242902e-006	1.702428e+000	1.684561e+000
3.000300030003000e-006	1.687245e+000	1.669543e+000
3.006700670067001e-006	1.685928e+000	1.668247e+000
3.019501950195002e-006	1.683295e+000	1.665646e+000
3.100310031003100e-006	1.666669e+000	1.649199e+000
3.108310831083284e-006	1.664975e+000	1.647531e+000
3.124312431243651e-006	1.661588e+000	1.644184e+000
3.200320032003200e-006	1.645499e+000	1.628270e+000
3.206720672067347e-006	1.644107e+000	1.626898e+000
3.219521952195641e-006	1.641322e+000	1.624148e+000
3.300330033003300e-006	1.623744e+000	1.606759e+000
3.308330833079093e-006	1.621957e+000	1.604999e+000
3.324332433230678e-006	1.618384e+000	1.601468e+000
3.400340034003401e-006	1.601411e+000	1.584679e+000
3.406740674064035e-006	1.599946e+000	1.583236e+000
3.419541954185303e-006	1.597014e+000	1.580340e+000
3.500350035003501e-006	1.578510e+000	1.562035e+000
3.508350835184678e-006	1.576633e+000	1.560184e+000
3.524352435547032e-006	1.572879e+000	1.556475e+000
3.600360036003601e-006	1.555048e+000	1.538836e+000
3.606760676148542e-006	1.553511e+000	1.537322e+000
3.619561956438425e-006	1.550437e+000	1.534285e+000
3.700370037003701e-006	1.531033e+000	1.515090e+000
3.708370834655652e-006	1.529068e+000	1.513153e+000
3.724372429959554e-006	1.525139e+000	1.509270e+000
3.800380038003801e-006	1.506474e+000	1.490807e+000
3.806780676125362e-006	1.504868e+000	1.489224e+000
3.819581952368484e-006	1.501657e+000	1.486050e+000
3.900390039003901e-006	1.481381e+000	1.465993e+000
3.908390897357273e-006	1.479332e+000	1.463972e+000
3.924392614064017e-006	1.475233e+000	1.459921e+000
4.000400040004001e-006	1.455763e+000	1.440661e+000
4.006800726686698e-006	1.454090e+000	1.439012e+000
4.019602100052093e-006	1.450745e+000	1.435706e+000
4.100410041004101e-006	1.429628e+000	1.414816e+000
4.108409442523370e-006	1.427497e+000	1.412714e+000
4.124408245561910e-006	1.423235e+000	1.408502e+000
4.200420042004201e-006	1.402986e+000	1.388471e+000
4.206819563219616e-006	1.401250e+000	1.386759e+000
4.219618605650448e-006	1.397776e+000	1.383326e+000
4.300430043004301e-006	1.375847e+000	1.361633e+000
4.308464408542027e-006	1.373628e+000	1.359443e+000
4.324533139617478e-006	1.369190e+000	1.355056e+000
4.400440044004401e-006	1.348222e+000	1.334314e+000
4.406867536434581e-006	1.346416e+000	1.332532e+000
4.419722521294943e-006	1.342803e+000	1.328962e+000
4.500450045004501e-006	1.320119e+000	1.306521e+000
4.507645274099278e-006	1.318063e+000	1.304493e+000
4.522035732288832e-006	1.313952e+000	1.300430e+000
4.600460046004601e-006	1.291549e+000	1.278268e+000
4.606216229280423e-006	1.289878e+000	1.276620e+000
4.617728595832066e-006	1.286537e+000	1.273318e+000
4.700470047004701e-006	1.262522e+000	1.249560e+000
4.709679940246015e-006	1.259808e+000	1.246881e+000
4.728099726728645e-006	1.254380e+000	1.241515e+000
4.800480048004801e-006	1.233050e+000	1.220414e+000
4.807847962597852e-006	1.230846e+000	1.218239e+000
4.822583791783956e-006	1.226439e+000	1.213882e+000
4.900490049004901e-006	1.203142e+000	1.190835e+000
4.906384380679342e-006	1.201354e+000	1.189071e+000
4.918173044028226e-006	1.197778e+000	1.185537e+000
5.000500050005001e-006	1.172809e+000	1.160836e+000
5.009930980684107e-006	1.169910e+000	1.157972e+000
5.028792842042320e-006	1.164111e+000	1.152239e+000
5.100510051005101e-006	1.142063e+000	1.130428e+000
5.108054795548386e-006	1.139714e+000	1.128108e+000
5.123144284634956e-006	1.135014e+000	1.123462e+000
5.200520052005201e-006	1.110915e+000	1.099622e+000
5.206555847639829e-006	1.109012e+000	1.097743e+000
5.218627438909085e-006	1.105205e+000	1.093980e+000
5.300530053005301e-006	1.079376e+000	1.068428e+000
5.310187326020705e-006	1.076294e+000	1.065384e+000
5.329501872051515e-006	1.070130e+000	1.059288e+000
5.400540054005401e-006	1.047458e+000	1.036860e+000
5.408265872417725e-006	1.044963e+000	1.034396e+000
5.454620782891668e-006	1.029999e+000	1.019595e+000
5.500000000000001e-006	1.015349e+000	1.005102e+000
5.500055005500551e-006	1.015331e+000	1.005085e+000
5.500165016501651e-006	1.015295e+000	1.005050e+000
5.500550055005501e-006	1.015171e+000	1.004926e+000
5.500682068206820e-006	1.015128e+000	1.004884e+000
5.501210121012100e-006	1.014956e+000	1.004715e+000
5.501914191419141e-006	1.014726e+000	1.004489e+000
5.511735111425384e-006	1.011520e+000	1.001322e+000
5.522928106553392e-006	1.007867e+000	9.977074e-001
5.525935816960043e-006	1.006885e+000	9.967363e-001
5.527631881920947e-006	1.006332e+000	9.961888e-001
5.528762397619966e-006	1.005963e+000	9.958239e-001
5.529978292722124e-006	1.005566e+000	9.954312e-001
5.532410082926441e-006	1.004772e+000	9.946454e-001
5.537273663335075e-006	1.003185e+000	9.930713e-001
5.546209779860745e-006	1.000268e+000	9.901726e-001
5.555903257892618e-006	9.971041e-001	9.870186e-001
5.567894407229399e-006	9.931903e-001	9.831024e-001
5.583612091750921e-006	9.880601e-001	9.779472e-001
5.600560056005601e-006	9.825284e-001	9.723691e-001
5.606683539835153e-006	9.805086e-001	9.703286e-001
5.608822041059481e-006	9.798033e-001	9.696136e-001
5.611740801538622e-006	9.788405e-001	9.686343e-001
5.613257135105850e-006	9.783404e-001	9.681211e-001
5.614362870934833e-006	9.779757e-001	9.677408e-001
5.615854891614062e-006	9.774836e-001	9.672199e-001
5.617785469966608e-006	9.768468e-001	9.665381e-001
5.621646626671699e-006	9.755732e-001	9.651603e-001
5.627026392475249e-006	9.737988e-001	9.632209e-001
5.634577465440719e-006	9.713081e-001	9.604641e-001
5.644207712255036e-006	9.681317e-001	9.568872e-001
5.656471118087563e-006	9.640868e-001	9.522099e-001
5.673962976653417e-006	9.583173e-001	9.452085e-001
5.694880161201872e-006	9.514180e-001	9.362785e-001
5.700570057005701e-006	9.495413e-001	9.336428e-001
5.702856128794871e-006	9.487796e-001	9.324617e-001
5.707428272373212e-006	9.472563e-001	9.298738e-001
5.716572559529893e-006	9.442098e-001	9.233077e-001
5.728181693710792e-006	9.403421e-001	9.092348e-001
5.737002380046538e-006	9.374034e-001	8.910044e-001
5.740998057446650e-006	9.360722e-001	8.789001e-001
5.743757427233717e-006	9.351528e-001	8.639480e-001
5.745631698686096e-006	9.345284e-001	8.428491e-001
5.746453202811964e-006	9.342547e-001	8.256145e-001
5.746826038660010e-006	9.341305e-001	8.140376e-001
5.746962978902510e-006	9.340849e-001	8.088765e-001
5.747119126227459e-006	9.340329e-001	8.024108e-001
5.747294378537778e-006	9.339745e-001	7.946783e-001
5.747463844995381e-006	9.339180e-001	7.868082e-001
5.747802777910587e-006	9.338051e-001	7.711977e-001
5.748369766124149e-006	9.336162e-001	7.479712e-001
5.748974120613780e-006	9.334149e-001	7.289513e-001
5.749711643330357e-006	9.331691e-001	7.133597e-001
5.750559467505095e-006	9.328867e-001	7.016085e-001
5.751374448969580e-006	9.326152e-001	6.936526e-001
5.752235678222969e-006	9.323282e-001	6.870503e-001
5.753280292220327e-006	9.319802e-001	6.802579e-001
5.754746663029011e-006	9.314917e-001	6.718870e-001
5.756527817338963e-006	9.308982e-001	6.627781e-001
5.758784497471929e-006	9.301464e-001	6.522967e-001
5.761475053429623e-006	9.292500e-001	6.408177e-001
5.764815769405218e-006	9.281370e-001	6.276110e-001
5.768387432619517e-006	9.269471e-001	6.144164e-001
5.772251456274810e-006	9.256597e-001	6.009440e-001
5.775384339745813e-006	9.246160e-001	5.905381e-001
5.778758290946407e-006	9.234919e-001	5.797985e-001
5.782385278992643e-006	9.222835e-001	5.686657e-001
5.785575292482372e-006	9.212207e-001	5.591801e-001
5.787967317580537e-006	9.204238e-001	5.522614e-001
5.790551587965477e-006	9.195628e-001	5.449384e-001
5.791714644024678e-006	9.191753e-001	5.416873e-001
5.792667148996579e-006	9.188580e-001	5.390494e-001
5.793899039637950e-006	9.184476e-001	5.356634e-001
5.796362820920692e-006	9.176267e-001	5.289506e-001
5.798584024388548e-006	9.168867e-001	5.229598e-001
5.800580058005801e-006	9.162217e-001	5.176221e-001
5.801024298699372e-006	9.160723e-001	5.164472e-001
5.801912780086515e-006	9.157735e-001	5.141054e-001
5.806866268104379e-006	9.141073e-001	5.012785e-001
5.813219318591537e-006	9.119703e-001	4.854073e-001
5.825925419565854e-006	9.076964e-001	4.552874e-001
5.845532665364029e-006	9.011012e-001	4.121151e-001
5.865450312235815e-006	8.944016e-001	3.715873e-001
5.874586239930605e-006	8.913286e-001	3.542979e-001
5.881597227205124e-006	8.889704e-001	3.416975e-001
5.888720598228070e-006	8.865743e-001	3.294029e-001
5.896115062626505e-006	8.840871e-001	3.171780e-001
5.900590059005901e-006	8.825818e-001	3.099492e-001
5.901362325076594e-006	8.823197e-001	3.087286e-001
5.902906857217982e-006	8.817954e-001	3.063017e-001
5.905995921500757e-006	8.807468e-001	3.015174e-001
5.912174050066308e-006	8.786497e-001	2.922247e-001
5.924530307197408e-006	8.744554e-001	2.744986e-001
5.940464010895389e-006	8.690467e-001	2.529588e-001
5.952703851426462e-006	8.648920e-001	2.374383e-001
5.961911905840423e-006	8.617664e-001	2.264116e-001
5.968640355387441e-006	8.594824e-001	2.186713e-001
5.971428299109409e-006	8.585361e-001	2.155441e-001
5.972192203226718e-006	8.582768e-001	2.146994e-001
5.972926214744845e-006	8.580276e-001	2.138931e-001
5.990246824244399e-006	8.521482e-001	1.958050e-001
6.000000000000000e-006	8.488375e-001	1.861680e-001
6.000060006000600e-006	8.488172e-001	1.861107e-001
6.000180018001800e-006	8.487764e-001	1.859962e-001
6.000600060006001e-006	8.486338e-001	1.855961e-001
6.000744074407441e-006	8.485845e-001	1.854591e-001
6.002088208820883e-006	8.481243e-001	1.841868e-001
6.010149799692321e-006	8.453639e-001	1.768157e-001
6.018211390563758e-006	8.426036e-001	1.697458e-001
6.026272981435197e-006	8.398433e-001	1.629771e-001
6.034334572306634e-006	8.370830e-001	1.565097e-001
6.042396163178072e-006	8.343227e-001	1.503436e-001
6.050457754049510e-006	8.315624e-001	1.444787e-001
6.058519344920948e-006	8.288020e-001	1.389151e-001
6.100610061006101e-006	8.143900e-001	1.110149e-001
6.117486218236232e-006	8.085637e-001	1.020174e-001
6.139987761209739e-006	8.007953e-001	9.131651e-002
6.184990847156755e-006	7.852586e-001	7.233014e-002
6.200620062006201e-006	7.798628e-001	6.642307e-002
6.227621913574410e-006	7.704676e-001	5.812726e-002
