Freq.	V(vout)
1.00000000000000e+002	(-8.94405707596133e-004dB,-6.10464541134068e-001°)
1.00230523807790e+002	(-8.94700384114626e-004dB,-6.11871796389751e-001°)
1.00461579027840e+002	(-8.94996420680735e-004dB,-6.13282295628628e-001°)
1.00693166885180e+002	(-8.95293823599055e-004dB,-6.14696046328333e-001°)
1.00925288607668e+002	(-8.95592599191547e-004dB,-6.16113055983735e-001°)
1.01157945425990e+002	(-8.95892753751237e-004dB,-6.17533332106974e-001°)
1.01391138573668e+002	(-8.96194293689779e-004dB,-6.18956882227500e-001°)
1.01624869287070e+002	(-8.96497225358069e-004dB,-6.20383713892126e-001°)
1.01859138805412e+002	(-8.96801555209234e-004dB,-6.21813834665047e-001°)
1.02093948370768e+002	(-8.97107289684828e-004dB,-6.23247252127900e-001°)
1.02329299228075e+002	(-8.97414435275596e-004dB,-6.24683973879796e-001°)
1.02565192625141e+002	(-8.97722998475175e-004dB,-6.26124007537351e-001°)
1.02801629812647e+002	(-8.98032985841820e-004dB,-6.27567360734747e-001°)
1.03038612044162e+002	(-8.98344403936682e-004dB,-6.29014041123751e-001°)
1.03276140576140e+002	(-8.98657259397104e-004dB,-6.30464056373774e-001°)
1.03514216667934e+002	(-8.98971558805456e-004dB,-6.31917414171893e-001°)
1.03752841581801e+002	(-8.99287308850200e-004dB,-6.33374122222908e-001°)
1.03992016582906e+002	(-8.99604516217868e-004dB,-6.34834188249376e-001°)
1.04231742939330e+002	(-8.99923187665397e-004dB,-6.36297619991657e-001°)
1.04472021922080e+002	(-9.00243329906329e-004dB,-6.37764425207938e-001°)
1.04712854805090e+002	(-9.00564949765115e-004dB,-6.39234611674296e-001°)
1.04954242865232e+002	(-9.00888054030523e-004dB,-6.40708187184727e-001°)
1.05196187382322e+002	(-9.01212649586804e-004dB,-6.42185159551191e-001°)
1.05438689639126e+002	(-9.01538743277702e-004dB,-6.43665536603649e-001°)
1.05681750921366e+002	(-9.01866342048230e-004dB,-6.45149326190115e-001°)
1.05925372517729e+002	(-9.02195452822183e-004dB,-6.46636536176680e-001°)
1.06169555719872e+002	(-9.02526082611123e-004dB,-6.48127174447573e-001°)
1.06414301822431e+002	(-9.02858238389964e-004dB,-6.49621248905189e-001°)
1.06659612123026e+002	(-9.03191927215599e-004dB,-6.51118767470137e-001°)
1.06905487922266e+002	(-9.03527156148781e-004dB,-6.52619738081279e-001°)
1.07151930523760e+002	(-9.03863932311023e-004dB,-6.54124168695778e-001°)
1.07398941234124e+002	(-9.04202262849880e-004dB,-6.55632067289133e-001°)
1.07646521362983e+002	(-9.04542154937983e-004dB,-6.57143441855223e-001°)
1.07894672222983e+002	(-9.04883615763398e-004dB,-6.58658300406351e-001°)
1.08143395129794e+002	(-9.05226652575915e-004dB,-6.60176650973289e-001°)
1.08392691402120e+002	(-9.05571272667760e-004dB,-6.61698501605308e-001°)
1.08642562361706e+002	(-9.05917483317660e-004dB,-6.63223860370245e-001°)
1.08893009333343e+002	(-9.06265291889215e-004dB,-6.64752735354516e-001°)
1.09144033644875e+002	(-9.06614705712269e-004dB,-6.66285134663182e-001°)
1.09395636627209e+002	(-9.06965732257477e-004dB,-6.67821066419983e-001°)
1.09647819614318e+002	(-9.07318378918341e-004dB,-6.69360538767377e-001°)
1.09900583943252e+002	(-9.07672653204098e-004dB,-6.70903559866595e-001°)
1.10153930954141e+002	(-9.08028562612410e-004dB,-6.72450137897667e-001°)
1.10407861990207e+002	(-9.08386114687239e-004dB,-6.74000281059483e-001°)
1.10662378397766e+002	(-9.08745317026552e-004dB,-6.75553997569828e-001°)
1.10917481526240e+002	(-9.09106177214821e-004dB,-6.77111295665422e-001°)
1.11173172728159e+002	(-9.09468702925244e-004dB,-6.78672183601970e-001°)
1.11429453359173e+002	(-9.09832901847418e-004dB,-6.80236669654207e-001°)
1.11686324778056e+002	(-9.10198781692160e-004dB,-6.81804762115931e-001°)
1.11943788346715e+002	(-9.10566350211759e-004dB,-6.83376469300060e-001°)
1.12201845430196e+002	(-9.10935615231802e-004dB,-6.84951799538669e-001°)
1.12460497396692e+002	(-9.11306584546055e-004dB,-6.86530761183035e-001°)
1.12719745617551e+002	(-9.11679266007114e-004dB,-6.88113362603680e-001°)
1.12979591467279e+002	(-9.12053667577523e-004dB,-6.89699612190419e-001°)
1.13240036323555e+002	(-9.12429797141710e-004dB,-6.91289518352404e-001°)
1.13501081567231e+002	(-9.12807662695013e-004dB,-6.92883089518163e-001°)
1.13762728582343e+002	(-9.13187272247242e-004dB,-6.94480334135654e-001°)
1.14024978756117e+002	(-9.13568633843891e-004dB,-6.96081260672294e-001°)
1.14287833478977e+002	(-9.13951755571926e-004dB,-6.97685877615029e-001°)
1.14551294144553e+002	(-9.14336645565576e-004dB,-6.99294193470351e-001°)
1.14815362149688e+002	(-9.14723311952318e-004dB,-7.00906216764362e-001°)
1.15080038894443e+002	(-9.15111762971508e-004dB,-7.02521956042816e-001°)
1.15345325782109e+002	(-9.15502006842250e-004dB,-7.04141419871156e-001°)
1.15611224219209e+002	(-9.15894051810654e-004dB,-7.05764616834564e-001°)
1.15877735615512e+002	(-9.16287906249175e-004dB,-7.07391555538017e-001°)
1.16144861384034e+002	(-9.16683578462758e-004dB,-7.09022244606312e-001°)
1.16412602941049e+002	(-9.17081076833507e-004dB,-7.10656692684130e-001°)
1.16680961706096e+002	(-9.17480409834186e-004dB,-7.12294908436073e-001°)
1.16949939101987e+002	(-9.17881585883549e-004dB,-7.13936900546707e-001°)
1.17219536554813e+002	(-9.18284613508375e-004dB,-7.15582677720615e-001°)
1.17489755493952e+002	(-9.18689501269195e-004dB,-7.17232248682445e-001°)
1.17760597352080e+002	(-9.19096257712081e-004dB,-7.18885622176944e-001°)
1.18032063565172e+002	(-9.19504891497872e-004dB,-7.20542806969018e-001°)
1.18304155572516e+002	(-9.19915411298984e-004dB,-7.22203811843770e-001°)
1.18576874816716e+002	(-9.20327825762761e-004dB,-7.23868645606547e-001°)
1.18850222743701e+002	(-9.20742143673498e-004dB,-7.25537317082991e-001°)
1.19124200802737e+002	(-9.21158373811636e-004dB,-7.27209835119084e-001°)
1.19398810446427e+002	(-9.21576524991374e-004dB,-7.28886208581190e-001°)
1.19674053130724e+002	(-9.21996606076100e-004dB,-7.30566446356111e-001°)
1.19949930314937e+002	(-9.22418626014074e-004dB,-7.32250557351129e-001°)
1.20226443461741e+002	(-9.22842593698586e-004dB,-7.33938550494046e-001°)
1.20503594037179e+002	(-9.23268518143485e-004dB,-7.35630434733247e-001°)
1.20781383510677e+002	(-9.23696408375159e-004dB,-7.37326219037735e-001°)
1.21059813355048e+002	(-9.24126273457612e-004dB,-7.39025912397184e-001°)
1.21338885046497e+002	(-9.24558122520434e-004dB,-7.40729523821985e-001°)
1.21618600064636e+002	(-9.24991964713468e-004dB,-7.42437062343291e-001°)
1.21898959892486e+002	(-9.25427809222248e-004dB,-7.44148537013070e-001°)
1.22179966016487e+002	(-9.25865665319107e-004dB,-7.45863956904152e-001°)
1.22461619926504e+002	(-9.26305542255164e-004dB,-7.47583331110270e-001°)
1.22743923115840e+002	(-9.26747449358698e-004dB,-7.49306668746123e-001°)
1.23026877081238e+002	(-9.27191396013925e-004dB,-7.51033978947405e-001°)
1.23310483322890e+002	(-9.27637391635930e-004dB,-7.52765270870870e-001°)
1.23594743344450e+002	(-9.28085445653300e-004dB,-7.54500553694371e-001°)
1.23879658653036e+002	(-9.28535567586247e-004dB,-7.56239836616910e-001°)
1.24165230759240e+002	(-9.28987766983921e-004dB,-7.57983128858698e-001°)
1.24451461177138e+002	(-9.29442053433088e-004dB,-7.59730439661176e-001°)
1.24738351424294e+002	(-9.29898436534981e-004dB,-7.61481778287098e-001°)
1.25025903021771e+002	(-9.30356925989213e-004dB,-7.63237154020559e-001°)
1.25314117494141e+002	(-9.30817531519507e-004dB,-7.64996576167045e-001°)
1.25602996369487e+002	(-9.31280262891063e-004dB,-7.66760054053494e-001°)
1.25892541179416e+002	(-9.31745129896089e-004dB,-7.68527597028329e-001°)
1.26182753459066e+002	(-9.32212142401054e-004dB,-7.70299214461523e-001°)
1.26473634747114e+002	(-9.32681310322587e-004dB,-7.72074915744640e-001°)
1.26765186585784e+002	(-9.33152643590817e-004dB,-7.73854710290887e-001°)
1.27057410520853e+002	(-9.33626152195675e-004dB,-7.75638607535163e-001°)
1.27350308101665e+002	(-9.34101846160851e-004dB,-7.77426616934106e-001°)
1.27643880881134e+002	(-9.34579735616123e-004dB,-7.79218747966154e-001°)
1.27938130415752e+002	(-9.35059830668131e-004dB,-7.81015010131580e-001°)
1.28233058265601e+002	(-9.35542141483311e-004dB,-7.82815412952556e-001°)
1.28528665994361e+002	(-9.36026678312973e-004dB,-7.84619965973196e-001°)
1.28824955169313e+002	(-9.36513451415182e-004dB,-7.86428678759602e-001°)
1.29121927361353e+002	(-9.37002471111660e-004dB,-7.88241560899927e-001°)
1.29419584144998e+002	(-9.37493747756925e-004dB,-7.90058622004423e-001°)
1.29717927098395e+002	(-9.37987291775899e-004dB,-7.91879871705476e-001°)
1.30016957803328e+002	(-9.38483113629196e-004dB,-7.93705319657681e-001°)
1.30316677845229e+002	(-9.38981223856516e-004dB,-7.95534975537876e-001°)
1.30617088813183e+002	(-9.39481632980202e-004dB,-7.97368849045195e-001°)
1.30918192299940e+002	(-9.39984351621940e-004dB,-7.99206949901132e-001°)
1.31219989901920e+002	(-9.40489390445854e-004dB,-8.01049287849575e-001°)
1.31522483219223e+002	(-9.40996760164295e-004dB,-8.02895872656874e-001°)
1.31825673855640e+002	(-9.41506471520479e-004dB,-8.04746714111875e-001°)
1.32129563418657e+002	(-9.42018535302956e-004dB,-8.06601822025990e-001°)
1.32434153519466e+002	(-9.42532962417939e-004dB,-8.08461206233237e-001°)
1.32739445772973e+002	(-9.43049763724390e-004dB,-8.10324876590296e-001°)
1.33045441797808e+002	(-9.43568950193150e-004dB,-8.12192842976557e-001°)
1.33352143216332e+002	(-9.44090532853895e-004dB,-8.14065115294183e-001°)
1.33659551654643e+002	(-9.44614522730517e-004dB,-8.15941703468153e-001°)
1.33967668742593e+002	(-9.45140930957825e-004dB,-8.17822617446313e-001°)
1.34276496113786e+002	(-9.45669768662914e-004dB,-8.19707867199439e-001°)
1.34586035405594e+002	(-9.46201047082834e-004dB,-8.21597462721275e-001°)
1.34896288259165e+002	(-9.46734777483567e-004dB,-8.23491414028602e-001°)
1.35207256319427e+002	(-9.47270971168717e-004dB,-8.25389731161282e-001°)
1.35518941235103e+002	(-9.47809639501687e-004dB,-8.27292424182308e-001°)
1.35831344658715e+002	(-9.48350793925930e-004dB,-8.29199503177872e-001°)
1.36144468246594e+002	(-9.48894445875263e-004dB,-8.31110978257393e-001°)
1.36458313658892e+002	(-9.49440606916599e-004dB,-8.33026859553597e-001°)
1.36772882559584e+002	(-9.49989288585993e-004dB,-8.34947157222557e-001°)
1.37088176616484e+002	(-9.50540502574780e-004dB,-8.36871881443751e-001°)
1.37404197501251e+002	(-9.51094260495215e-004dB,-8.38801042420104e-001°)
1.37720946889394e+002	(-9.51650574150519e-004dB,-8.40734650378068e-001°)
1.38038426460288e+002	(-9.52209455284120e-004dB,-8.42672715567644e-001°)
1.38356637897177e+002	(-9.52770915793763e-004dB,-8.44615248262467e-001°)
1.38675582887188e+002	(-9.53334967526083e-004dB,-8.46562258759834e-001°)
1.38995263121334e+002	(-9.53901622485886e-004dB,-8.48513757380777e-001°)
1.39315680294529e+002	(-9.54470892661589e-004dB,-8.50469754470106e-001°)
1.39636836105593e+002	(-9.55042790129380e-004dB,-8.52430260396478e-001°)
1.39958732257261e+002	(-9.55617327011741e-004dB,-8.54395285552432e-001°)
1.40281370456195e+002	(-9.56194515498674e-004dB,-8.56364840354458e-001°)
1.40604752412990e+002	(-9.56774367807189e-004dB,-8.58338935243051e-001°)
1.40928879842186e+002	(-9.57356896242066e-004dB,-8.60317580682764e-001°)
1.41253754462274e+002	(-9.57942113143772e-004dB,-8.62300787162260e-001°)
1.41579377995707e+002	(-9.58530030934761e-004dB,-8.64288565194371e-001°)
1.41905752168908e+002	(-9.59120662048099e-004dB,-8.66280925316161e-001°)
1.42232878712281e+002	(-9.59714019032591e-004dB,-8.68277878088963e-001°)
1.42560759360218e+002	(-9.60310114453442e-004dB,-8.70279434098456e-001°)
1.42889395851109e+002	(-9.60908960951090e-004dB,-8.72285603954704e-001°)
1.43218789927353e+002	(-9.61510571225774e-004dB,-8.74296398292226e-001°)
1.43548943335365e+002	(-9.62114958041392e-004dB,-8.76311827770040e-001°)
1.43879857825583e+002	(-9.62722134162813e-004dB,-8.78331903071727e-001°)
1.44211535152486e+002	(-9.63332112523685e-004dB,-8.80356634905488e-001°)
1.44543977074592e+002	(-9.63944906010411e-004dB,-8.82386034004195e-001°)
1.44877185354475e+002	(-9.64560527617411e-004dB,-8.84420111125452e-001°)
1.45211161758773e+002	(-9.65178990418198e-004dB,-8.86458877051654e-001°)
1.45545908058195e+002	(-9.65800307526799e-004dB,-8.88502342590037e-001°)
1.45881426027534e+002	(-9.66424492087143e-004dB,-8.90550518572744e-001°)
1.46217717445671e+002	(-9.67051557341537e-004dB,-8.92603415856869e-001°)
1.46554784095590e+002	(-9.67681516589200e-004dB,-8.94661045324533e-001°)
1.46892627764385e+002	(-9.68314383148643e-004dB,-8.96723417882927e-001°)
1.47231250243271e+002	(-9.68950170494623e-004dB,-8.98790544464377e-001°)
1.47570653327588e+002	(-9.69588892072009e-004dB,-9.00862436026392e-001°)
1.47910838816819e+002	(-9.70230561430796e-004dB,-9.02939103551743e-001°)
1.48251808514594e+002	(-9.70875192151852e-004dB,-9.05020558048493e-001°)
1.48593564228699e+002	(-9.71522797933710e-004dB,-9.07106810550075e-001°)
1.48936107771090e+002	(-9.72173392465268e-004dB,-9.09197872115350e-001°)
1.49279440957898e+002	(-9.72826989576237e-004dB,-9.11293753828656e-001°)
1.49623565609442e+002	(-9.73483603089587e-004dB,-9.13394466799869e-001°)
1.49968483550236e+002	(-9.74143246961384e-004dB,-9.15500022164471e-001°)
1.50314196609001e+002	(-9.74805935139987e-004dB,-9.17610431083596e-001°)
1.50660706618673e+002	(-9.75471681675030e-004dB,-9.19725704744098e-001°)
1.51008015416413e+002	(-9.76140500701988e-004dB,-9.21845854358601e-001°)
1.51356124843619e+002	(-9.76812406399742e-004dB,-9.23970891165580e-001°)
1.51705036745932e+002	(-9.77487412974188e-004dB,-9.26100826429382e-001°)
1.52054752973248e+002	(-9.78165534756602e-004dB,-9.28235671440332e-001°)
1.52405275379728e+002	(-9.78846786134209e-004dB,-9.30375437514757e-001°)
1.52756605823806e+002	(-9.79531181542463e-004dB,-9.32520135995059e-001°)
1.53108746168202e+002	(-9.80218735494944e-004dB,-9.34669778249774e-001°)
1.53461698279928e+002	(-9.80909462530315e-004dB,-9.36824375673638e-001°)
1.53815464030302e+002	(-9.81603377314555e-004dB,-9.38983939687634e-001°)
1.54170045294954e+002	(-9.82300494558013e-004dB,-9.41148481739066e-001°)
1.54525443953840e+002	(-9.83000829047239e-004dB,-9.43318013301612e-001°)
1.54881661891247e+002	(-9.83704395603508e-004dB,-9.45492545875386e-001°)
1.55238700995807e+002	(-9.84411209175413e-004dB,-9.47672090987001e-001°)
1.55596563160506e+002	(-9.85121284711551e-004dB,-9.49856660189626e-001°)
1.55955250282694e+002	(-9.85834637284944e-004dB,-9.52046265063052e-001°)
1.56314764264094e+002	(-9.86551281990802e-004dB,-9.54240917213747e-001°)
1.56675107010813e+002	(-9.87271234049722e-004dB,-9.56440628274926e-001°)
1.57036280433354e+002	(-9.87994508725708e-004dB,-9.58645409906607e-001°)
1.57398286446620e+002	(-9.88721121308814e-004dB,-9.60855273795668e-001°)
1.57761126969933e+002	(-9.89451087246307e-004dB,-9.63070231655917e-001°)
1.58124803927037e+002	(-9.90184421985461e-004dB,-9.65290295228154e-001°)
1.58489319246110e+002	(-9.90921141068074e-004dB,-9.67515476280232e-001°)
1.58854674859776e+002	(-9.91661260131436e-004dB,-9.69745786607109e-001°)
1.59220872705115e+002	(-9.92404794846596e-004dB,-9.71981238030926e-001°)
1.59587914723672e+002	(-9.93151760990706e-004dB,-9.74221842401063e-001°)
1.59955802861465e+002	(-9.93902174360213e-004dB,-9.76467611594193e-001°)
1.60324539069002e+002	(-9.94656050931924e-004dB,-9.78718557514370e-001°)
1.60694125301286e+002	(-9.95413406601644e-004dB,-9.80974692093050e-001°)
1.61064563517825e+002	(-9.96174257489900e-004dB,-9.83236027289207e-001°)
1.61435855682647e+002	(-9.96938619674795e-004dB,-9.85502575089345e-001°)
1.61808003764305e+002	(-9.97706509402254e-004dB,-9.87774347507596e-001°)
1.62181009735891e+002	(-9.98477942903745e-004dB,-9.90051356585778e-001°)
1.62554875575047e+002	(-9.99252936566985e-004dB,-9.92333614393440e-001°)
1.62929603263970e+002	(-1.00003150679320e-003dB,-9.94621133027947e-001°)
1.63305194789432e+002	(-1.00081367009841e-003dB,-9.96913924614536e-001°)
1.63681652142779e+002	(-1.00159944310953e-003dB,-9.99212001306375e-001°)
1.64058977319952e+002	(-1.00238884238214e-003dB,-1.00151537528464e+000°)
1.64437172321491e+002	(-1.00318188471678e-003dB,-1.00382405875856e+000°)
1.64816239152549e+002	(-1.00397858691885e-003dB,-1.00613806396552e+000°)
1.65196179822900e+002	(-1.00477896582747e-003dB,-1.00845740317105e+000°)
1.65576996346951e+002	(-1.00558303847954e-003dB,-1.01078208866900e+000°)
1.65958690743754e+002	(-1.00639082186080e-003dB,-1.01311213278150e+000°)
1.66341265037015e+002	(-1.00720233312195e-003dB,-1.01544754785908e+000°)
1.66724721255104e+002	(-1.00801758945904e-003dB,-1.01778834628074e+000°)
1.67109061431069e+002	(-1.00883660814525e-003dB,-1.02013454045397e+000°)
1.67494287602642e+002	(-1.00965940654254e-003dB,-1.02248614281487e+000°)
1.67880401812254e+002	(-1.01048600209868e-003dB,-1.02484316582820e+000°)
1.68267406107045e+002	(-1.01131641230681e-003dB,-1.02720562198740e+000°)
1.68655302538872e+002	(-1.01215065480280e-003dB,-1.02957352381473e+000°)
1.69044093164324e+002	(-1.01298874725630e-003dB,-1.03194688386128e+000°)
1.69433780044731e+002	(-1.01383070742087e-003dB,-1.03432571470707e+000°)
1.69824365246172e+002	(-1.01467655317064e-003dB,-1.03671002896109e+000°)
1.70215850839493e+002	(-1.01552630240000e-003dB,-1.03909983926138e+000°)
1.70608238900310e+002	(-1.01637997312873e-003dB,-1.04149515827510e+000°)
1.71001531509027e+002	(-1.01723758347309e-003dB,-1.04389599869861e+000°)
1.71395730750840e+002	(-1.01809915156956e-003dB,-1.04630237325748e+000°)
1.71790838715757e+002	(-1.01896469572056e-003dB,-1.04871429470664e+000°)
1.72186857498599e+002	(-1.01983423422947e-003dB,-1.05113177583037e+000°)
1.72583789199018e+002	(-1.02070778556556e-003dB,-1.05355482944244e+000°)
1.72981635921508e+002	(-1.02158536824441e-003dB,-1.05598346838611e+000°)
1.73380399775412e+002	(-1.02246700082888e-003dB,-1.05841770553424e+000°)
1.73780082874935e+002	(-1.02335270202940e-003dB,-1.06085755378935e+000°)
1.74180687339159e+002	(-1.02424249062969e-003dB,-1.06330302608367e+000°)
1.74582215292048e+002	(-1.02513638544052e-003dB,-1.06575413537924e+000°)
1.74984668862463e+002	(-1.02603440547904e-003dB,-1.06821089466795e+000°)
1.75388050184174e+002	(-1.02693656970842e-003dB,-1.07067331697163e+000°)
1.75792361395867e+002	(-1.02784289730884e-003dB,-1.07314141534210e+000°)
1.76197604641161e+002	(-1.02875340746723e-003dB,-1.07561520286127e+000°)
1.76603782068614e+002	(-1.02966811945059e-003dB,-1.07809469264115e+000°)
1.77010895831740e+002	(-1.03058705269667e-003dB,-1.08057989782399e+000°)
1.77418948089014e+002	(-1.03151022662293e-003dB,-1.08307083158230e+000°)
1.77827941003890e+002	(-1.03243766087160e-003dB,-1.08556750711894e+000°)
1.78237876744807e+002	(-1.03336937503572e-003dB,-1.08806993766719e+000°)
1.78648757485203e+002	(-1.03430538887616e-003dB,-1.09057813649081e+000°)
1.79060585403527e+002	(-1.03524572224350e-003dB,-1.09309211688411e+000°)
1.79473362683250e+002	(-1.03619039506742e-003dB,-1.09561189217204e+000°)
1.79887091512876e+002	(-1.03713942735380e-003dB,-1.09813747571024e+000°)
1.80301774085954e+002	(-1.03809283923007e-003dB,-1.10066888088513e+000°)
1.80717412601090e+002	(-1.03905065091528e-003dB,-1.10320612111393e+000°)
1.81134009261958e+002	(-1.04001288266514e-003dB,-1.10574920984482e+000°)
1.81551566277311e+002	(-1.04097955491480e-003dB,-1.10829816055692e+000°)
1.81970085860996e+002	(-1.04195068815531e-003dB,-1.11085298676043e+000°)
1.82389570231961e+002	(-1.04292630291058e-003dB,-1.11341370199665e+000°)
1.82810021614272e+002	(-1.04390641991571e-003dB,-1.11598031983809e+000°)
1.83231442237119e+002	(-1.04489105992318e-003dB,-1.11855285388851e+000°)
1.83653834334832e+002	(-1.04588024381186e-003dB,-1.12113131778303e+000°)
1.84077200146893e+002	(-1.04687399252618e-003dB,-1.12371572518817e+000°)
1.84501541917945e+002	(-1.04787232713118e-003dB,-1.12630608980192e+000°)
1.84926861897805e+002	(-1.04887526882689e-003dB,-1.12890242535385e+000°)
1.85353162341478e+002	(-1.04988283879219e-003dB,-1.13150474560513e+000°)
1.85780445509167e+002	(-1.05089505841234e-003dB,-1.13411306434865e+000°)
1.86208713666284e+002	(-1.05191194918161e-003dB,-1.13672739540908e+000°)
1.86637969083464e+002	(-1.05293353259813e-003dB,-1.13934775264291e+000°)
1.87068214036577e+002	(-1.05395983032306e-003dB,-1.14197414993856e+000°)
